T6D78 000:009.326   SEGGER J-Link V7.90 Log File
T6D78 000:009.461   DLL Compiled: Aug  2 2023 15:18:43
T6D78 000:009.467   Logging started @ 2023-08-29 18:52
T6D78 000:009.472 - 9.474ms
T6D78 000:009.481 JLINK_SetWarnOutHandler(...)
T6D78 000:009.487 - 0.008ms
T6D78 000:009.493 JLINK_OpenEx(...)
T6D78 000:011.529   Firmware: J-Link Lite-XMC4200 Rev.1 compiled Dec  5 2022 14:44:58
T6D78 000:011.879   Firmware: J-Link Lite-XMC4200 Rev.1 compiled Dec  5 2022 14:44:58
T6D78 000:037.701   Hardware: V1.00
T6D78 000:037.729   S/N: 591114107
T6D78 000:037.739   OEM: SEGGER
T6D78 000:037.750   Feature(s): None
T6D78 000:038.491   Bootloader: (Could not read)
T6D78 000:038.990   USB speed mode: Full speed (12 MBit/s)
T6D78 000:039.385   TELNET listener socket opened on port 19021
T6D78 000:039.588   WEBSRV WEBSRV_Init(): Starting webserver thread(s)
T6D78 000:040.259   WEBSRV Webserver running on local port 19080
T6D78 000:040.447   Looking for J-Link GUI Server exe at: C:\Keil_v5\ARM\Segger\JLinkGUIServer.exe
T6D78 000:040.896   Looking for J-Link GUI Server exe at: C:\Program Files (x86)\SEGGER\JLink\JLinkGUIServer.exe
T6D78 000:040.958   Forking J-Link GUI Server: C:\Program Files (x86)\SEGGER\JLink\JLinkGUIServer.exe
T6D78 000:092.247   J-Link GUI Server info: "J-Link GUI server V7.90 "
T6D78 000:093.977 - 84.503ms returns "O.K."
T6D78 000:094.012 JLINK_GetEmuCaps()
T6D78 000:094.017 - 0.006ms returns 0xB8EA5A33
T6D78 000:094.027 JLINK_TIF_GetAvailable(...)
T6D78 000:094.177 - 0.153ms
T6D78 000:094.184 JLINK_SetErrorOutHandler(...)
T6D78 000:094.187 - 0.005ms
T6D78 000:094.199 JLINK_ExecCommand("ProjectFile = "C:\Users\sjang\Documents\InfineonBLDC\P01_LED\JLinkSettings.ini"", ...). 
T6D78 000:105.582   Ref file found at: C:\Keil_v5\ARM\Segger\JLinkDevices.ref
T6D78 000:106.010   REF file references invalid XML file: C:\Program Files (x86)\SEGGER\JLink\JLinkDevices.xml
T6D78 000:106.523 - 12.328ms returns 0x00
T6D78 000:132.181 JLINK_ExecCommand("Device = TLE9879QXA40", ...). 
T6D78 000:136.092   Device "TLE9879" selected.
T6D78 000:137.439 - 5.253ms returns 0x00
T6D78 000:137.462 JLINK_ExecCommand("DisableConnectionTimeout", ...). 
T6D78 000:137.474 - 0.005ms returns 0x01
T6D78 000:137.483 JLINK_GetHardwareVersion()
T6D78 000:137.491 - 0.011ms returns 10000
T6D78 000:137.499 JLINK_GetDLLVersion()
T6D78 000:137.512 - 0.016ms returns 79000
T6D78 000:137.530 JLINK_GetOEMString(...)
T6D78 000:137.544 JLINK_GetFirmwareString(...)
T6D78 000:137.547 - 0.005ms
T6D78 000:141.277 JLINK_GetDLLVersion()
T6D78 000:141.288 - 0.012ms returns 79000
T6D78 000:141.293 JLINK_GetCompileDateTime()
T6D78 000:141.297 - 0.005ms
T6D78 000:142.162 JLINK_GetFirmwareString(...)
T6D78 000:142.171 - 0.010ms
T6D78 000:143.143 JLINK_GetHardwareVersion()
T6D78 000:143.154 - 0.012ms returns 10000
T6D78 000:143.993 JLINK_GetSN()
T6D78 000:144.001 - 0.010ms returns 591114107
T6D78 000:144.813 JLINK_GetOEMString(...)
T6D78 000:145.609 JLINK_TIF_Select(JLINKARM_TIF_SWD)
T6D78 000:146.313 - 0.710ms returns 0x00
T6D78 000:146.323 JLINK_HasError()
T6D78 000:146.333 JLINK_SetSpeed(5000)
T6D78 000:146.391 - 0.060ms
T6D78 000:146.397 JLINK_GetId()
T6D78 000:147.539   InitTarget() start
T6D78 000:147.550    J-Link Script File: Executing InitTarget()
T6D78 000:208.567   InitTarget() end - Took 56.5ms
T6D78 000:210.132   Found SW-DP with ID 0x2BA01477
T6D78 000:214.080   DPIDR: 0x2BA01477
T6D78 000:215.407   CoreSight SoC-400 or earlier
T6D78 000:217.829   Scanning AP map to find all available APs
T6D78 000:219.322   AP[1]: Stopped AP scan as end of AP map has been reached
T6D78 000:220.180   AP[0]: AHB-AP (IDR: 0x24770011)
T6D78 000:248.254   Iterating through AP map to find AHB-AP to use
T6D78 000:253.844   AP[0]: Core found
T6D78 000:254.716   AP[0]: AHB-AP ROM base: 0xE00FF000
T6D78 000:256.187   CPUID register: 0x412FC231. Implementer code: 0x41 (ARM)
T6D78 000:258.011   Found Cortex-M3 r2p1, Little endian.
T6D78 000:258.528   -- Max. mem block: 0x00003648
T6D78 000:259.059   CPU_ReadMem(4 bytes @ 0xE000EDF0)
T6D78 000:259.423   CPU_ReadMem(4 bytes @ 0xE0002000)
T6D78 000:261.040   FPUnit: 2 code (BP) slots and 0 literal slots
T6D78 000:261.054   CPU_ReadMem(4 bytes @ 0xE000EDFC)
T6D78 000:261.572   CPU_WriteMem(4 bytes @ 0xE000EDFC)
T6D78 000:261.890   CPU_ReadMem(4 bytes @ 0xE0001000)
T6D78 000:262.298   CPU_WriteMem(4 bytes @ 0xE0001000)
T6D78 000:263.038   CPU_ReadMem(4 bytes @ 0xE000ED88)
T6D78 000:263.433   CPU_WriteMem(4 bytes @ 0xE000ED88)
T6D78 000:263.876   CPU_ReadMem(4 bytes @ 0xE000ED88)
T6D78 000:264.243   CPU_WriteMem(4 bytes @ 0xE000ED88)
T6D78 000:265.540   CoreSight components:
T6D78 000:267.897   ROMTbl[0] @ E00FF000
T6D78 000:267.911   CPU_ReadMem(64 bytes @ 0xE00FF000)
T6D78 000:268.742   CPU_ReadMem(32 bytes @ 0xE000EFE0)
T6D78 000:270.445   [0][0]: E000E000 CID B105E00D PID 000BB000 SCS
T6D78 000:270.457   CPU_ReadMem(32 bytes @ 0xE0001FE0)
T6D78 000:272.033   [0][1]: E0001000 CID B105E00D PID 003BB002 DWT
T6D78 000:272.044   CPU_ReadMem(32 bytes @ 0xE0002FE0)
T6D78 000:273.633   [0][2]: E0002000 CID B105E00D PID 002BB003 FPB
T6D78 000:273.900 - 127.505ms returns 0x2BA01477
T6D78 000:273.910 JLINK_GetDLLVersion()
T6D78 000:273.914 - 0.005ms returns 79000
T6D78 000:273.919 JLINK_CORE_GetFound()
T6D78 000:273.922 - 0.005ms returns 0x30000FF
T6D78 000:273.927 JLINK_GetDebugInfo(0x100 = JLINKARM_ROM_TABLE_ADDR_INDEX)
T6D78 000:273.931   Value=0xE00FF000
T6D78 000:273.936 - 0.011ms returns 0
T6D78 000:274.788 JLINK_GetDebugInfo(0x100 = JLINKARM_ROM_TABLE_ADDR_INDEX)
T6D78 000:274.797   Value=0xE00FF000
T6D78 000:274.802 - 0.015ms returns 0
T6D78 000:274.806 JLINK_GetDebugInfo(0x101 = JLINKARM_DEBUG_INFO_ETM_ADDR_INDEX)
T6D78 000:274.810   Value=0x00000000
T6D78 000:274.815 - 0.010ms returns 0
T6D78 000:274.823 JLINK_ReadMemEx(0xE0041FF0, 0x10 Bytes, Flags = 0x02000004)
T6D78 000:274.837   CPU_ReadMem(16 bytes @ 0xE0041FF0)
T6D78 000:275.375   Data:  00 00 00 00 00 00 00 00 00 00 00 00 00 00 00 00
T6D78 000:275.407 - 0.595ms returns 16 (0x10)
T6D78 000:275.436 JLINK_GetDebugInfo(0x102 = JLINKARM_DEBUG_INFO_MTB_ADDR_INDEX)
T6D78 000:275.462   Value=0x00000000
T6D78 000:275.467 - 0.032ms returns 0
T6D78 000:275.471 JLINK_GetDebugInfo(0x103 = JLINKARM_DEBUG_INFO_TPIU_ADDR_INDEX)
T6D78 000:275.474   Value=0x00000000
T6D78 000:275.479 - 0.010ms returns 0
T6D78 000:275.483 JLINK_ReadMemEx(0xE0040FF0, 0x10 Bytes, Flags = 0x02000004)
T6D78 000:275.489   CPU_ReadMem(16 bytes @ 0xE0040FF0)
T6D78 000:275.990   Data:  00 00 00 00 00 00 00 00 00 00 00 00 00 00 00 00
T6D78 000:276.023 - 0.550ms returns 16 (0x10)
T6D78 000:276.049 JLINK_GetDebugInfo(0x104 = JLINKARM_DEBUG_INFO_ITM_ADDR_INDEX)
T6D78 000:276.071   Value=0xE0000000
T6D78 000:276.100 - 0.061ms returns 0
T6D78 000:276.124 JLINK_GetDebugInfo(0x105 = JLINKARM_DEBUG_INFO_DWT_ADDR_INDEX)
T6D78 000:276.143   Value=0xE0001000
T6D78 000:276.148 - 0.025ms returns 0
T6D78 000:276.152 JLINK_GetDebugInfo(0x106 = JLINKARM_DEBUG_INFO_FPB_ADDR_INDEX)
T6D78 000:276.155   Value=0xE0002000
T6D78 000:276.160 - 0.010ms returns 0
T6D78 000:276.164 JLINK_GetDebugInfo(0x107 = JLINKARM_DEBUG_INFO_NVIC_ADDR_INDEX)
T6D78 000:276.168   Value=0xE000E000
T6D78 000:276.173 - 0.010ms returns 0
T6D78 000:276.177 JLINK_GetDebugInfo(0x10C = JLINKARM_DEBUG_INFO_DBG_ADDR_INDEX)
T6D78 000:276.180   Value=0xE000EDF0
T6D78 000:276.185 - 0.010ms returns 0
T6D78 000:276.189 JLINK_GetDebugInfo(0x01 = Unknown)
T6D78 000:276.194   Value=0x00000000
T6D78 000:276.199 - 0.011ms returns 0
T6D78 000:276.203 JLINK_ReadMemU32(0xE000ED00, 0x1 Items)
T6D78 000:276.208   CPU_ReadMem(4 bytes @ 0xE000ED00)
T6D78 000:276.535   Data:  31 C2 2F 41
T6D78 000:276.541   Debug reg: CPUID
T6D78 000:276.546 - 0.344ms returns 1 (0x1)
T6D78 000:276.551 JLINK_GetDebugInfo(0x10F = JLINKARM_DEBUG_INFO_HAS_CORTEX_M_SECURITY_EXT_INDEX)
T6D78 000:276.554   Value=0x00000000
T6D78 000:276.559 - 0.010ms returns 0
T6D78 000:276.564 JLINK_HasError()
T6D78 000:276.568 JLINK_SetResetType(JLINKARM_CM3_RESET_TYPE_NORMAL)
T6D78 000:276.572 - 0.005ms returns JLINKARM_CM3_RESET_TYPE_NORMAL
T6D78 000:276.578 JLINK_Reset()
T6D78 000:318.709   ResetTarget() start
T6D78 000:318.728    J-Link Script File: Executing ResetTarget()
T6D78 000:322.723   CPU_ReadMem(64 bytes @ 0x11000000)
T6D78 000:323.653    -- Updating C cache (64 bytes @ 0x11000000)
T6D78 000:323.710    -- Read from C cache (4 bytes @ 0x11000004)
T6D78 000:323.722   CPU_WriteMem(4 bytes @ 0xE0002000)
T6D78 000:324.231   CPU_ReadMem(4 bytes @ 0xE0002008)
T6D78 000:324.803   CPU_WriteMem(4 bytes @ 0xE0002008)
T6D78 000:325.391   CPU_WriteMem(4 bytes @ 0xE000ED0C)
T6D78 000:428.664   CPU_WriteMem(4 bytes @ 0xE0002008)
T6D78 000:433.510   ResetTarget() end - Took 110ms
T6D78 000:437.031   CPU_WriteMem(4 bytes @ 0xE0002000)
T6D78 000:437.609   CPU_ReadMem(4 bytes @ 0xE000EDFC)
T6D78 000:438.124   CPU_ReadMem(4 bytes @ 0xE0001000)
T6D78 000:438.709 - 162.149ms
T6D78 000:438.745 JLINK_Halt()
T6D78 000:438.755 - 0.014ms returns 0x00
T6D78 000:438.767 JLINK_ReadMemU32(0xE000EDF0, 0x1 Items)
T6D78 000:438.790   CPU_ReadMem(4 bytes @ 0xE000EDF0)
T6D78 000:439.272   Data:  03 00 03 00
T6D78 000:439.299   Debug reg: DHCSR
T6D78 000:439.312 - 0.549ms returns 1 (0x1)
T6D78 000:439.340 JLINK_WriteU32_64(0xE000EDF0, 0xA05F0003)
T6D78 000:439.351   Debug reg: DHCSR
T6D78 000:439.714   CPU_WriteMem(4 bytes @ 0xE000EDF0)
T6D78 000:440.177 - 0.844ms returns 0 (0x00000000)
T6D78 000:440.195 JLINK_WriteU32_64(0xE000EDFC, 0x01000000)
T6D78 000:440.205   Debug reg: DEMCR
T6D78 000:440.222   CPU_WriteMem(4 bytes @ 0xE000EDFC)
T6D78 000:440.691 - 0.501ms returns 0 (0x00000000)
T6D78 000:445.443 JLINK_GetHWStatus(...)
T6D78 000:446.021 - 0.585ms returns 0
T6D78 000:448.531 JLINK_GetNumBPUnits(Type = 0xFFFFFF00)
T6D78 000:448.541 - 0.012ms returns 0x02
T6D78 000:448.546 JLINK_GetNumBPUnits(Type = 0xF0)
T6D78 000:448.550 - 0.005ms returns 0x2000
T6D78 000:448.554 JLINK_GetNumWPUnits()
T6D78 000:448.557 - 0.005ms returns 1
T6D78 000:451.019 JLINK_GetSpeed()
T6D78 000:451.030 - 0.013ms returns 3000
T6D78 000:452.759 JLINK_ReadMemU32(0xE000E004, 0x1 Items)
T6D78 000:452.776   CPU_ReadMem(4 bytes @ 0xE000E004)
T6D78 000:453.301   Data:  00 00 00 00
T6D78 000:453.312 - 0.554ms returns 1 (0x1)
T6D78 000:453.319 JLINK_ReadMemU32(0xE000E004, 0x1 Items)
T6D78 000:453.327   CPU_ReadMem(4 bytes @ 0xE000E004)
T6D78 000:453.872   Data:  00 00 00 00
T6D78 000:453.883 - 0.566ms returns 1 (0x1)
T6D78 000:453.890 JLINK_WriteMemEx(0xE0001000, 0x0000001C Bytes, Flags = 0x02000004)
T6D78 000:453.894   Data:  01 00 00 00 00 00 00 00 00 00 00 00 00 00 00 00 ...
T6D78 000:453.906   CPU_WriteMem(28 bytes @ 0xE0001000)
T6D78 000:454.745 - 0.862ms returns 0x1C
T6D78 000:454.760 JLINK_Halt()
T6D78 000:454.764 - 0.005ms returns 0x00
T6D78 000:454.768 JLINK_IsHalted()
T6D78 000:454.772 - 0.005ms returns TRUE
T6D78 000:457.912 JLINK_WriteMem(0x18000018, 0xD8 Bytes, ...)
T6D78 000:457.921   Data:  00 BE 0A E0 0D 78 2D 06 68 40 08 24 40 00 00 D3 ...
T6D78 000:458.102   CPU_WriteMem(216 bytes @ 0x18000018)
T6D78 000:459.808 - 1.913ms returns 0xD8
T6D78 000:459.947 JLINK_HasError()
T6D78 000:459.967 JLINK_WriteReg(R0, 0x11000000)
T6D78 000:459.978 - 0.015ms returns 0
T6D78 000:459.987 JLINK_WriteReg(R1, 0x00B71B00)
T6D78 000:459.995 - 0.011ms returns 0
T6D78 000:460.003 JLINK_WriteReg(R2, 0x00000001)
T6D78 000:460.009 - 0.010ms returns 0
T6D78 000:460.017 JLINK_WriteReg(R3, 0x00000000)
T6D78 000:460.024 - 0.010ms returns 0
T6D78 000:460.038 JLINK_WriteReg(R4, 0x00000000)
T6D78 000:460.045 - 0.009ms returns 0
T6D78 000:460.050 JLINK_WriteReg(R5, 0x00000000)
T6D78 000:460.054 - 0.005ms returns 0
T6D78 000:460.058 JLINK_WriteReg(R6, 0x00000000)
T6D78 000:460.061 - 0.005ms returns 0
T6D78 000:460.065 JLINK_WriteReg(R7, 0x00000000)
T6D78 000:460.069 - 0.005ms returns 0
T6D78 000:460.073 JLINK_WriteReg(R8, 0x00000000)
T6D78 000:460.080 - 0.009ms returns 0
T6D78 000:460.084 JLINK_WriteReg(R9, 0x180000CC)
T6D78 000:460.088 - 0.005ms returns 0
T6D78 000:460.092 JLINK_WriteReg(R10, 0x00000000)
T6D78 000:460.095 - 0.007ms returns 0
T6D78 000:460.103 JLINK_WriteReg(R11, 0x00000000)
T6D78 000:460.107 - 0.005ms returns 0
T6D78 000:460.111 JLINK_WriteReg(R12, 0x00000000)
T6D78 000:460.114 - 0.005ms returns 0
T6D78 000:460.118 JLINK_WriteReg(R13 (SP), 0x18001018)
T6D78 000:460.123 - 0.006ms returns 0
T6D78 000:460.127 JLINK_WriteReg(R14, 0x18000019)
T6D78 000:460.130 - 0.005ms returns 0
T6D78 000:460.134 JLINK_WriteReg(R15 (PC), 0x18000038)
T6D78 000:460.139 - 0.006ms returns 0
T6D78 000:460.143 JLINK_WriteReg(XPSR, 0x01000000)
T6D78 000:460.147 - 0.005ms returns 0
T6D78 000:460.151 JLINK_WriteReg(MSP, 0x18001018)
T6D78 000:460.154 - 0.005ms returns 0
T6D78 000:460.158 JLINK_WriteReg(PSP, 0x18001018)
T6D78 000:460.162 - 0.005ms returns 0
T6D78 000:460.166 JLINK_WriteReg(CFBP, 0x00000000)
T6D78 000:460.170 - 0.005ms returns 0
T6D78 000:460.174 JLINK_SetBPEx(Addr = 0x18000018, Type = 0xFFFFFFF2)
T6D78 000:460.179 - 0.006ms returns 0x00000001
T6D78 000:460.183 JLINK_Go()
T6D78 000:460.190   CPU_WriteMem(4 bytes @ 0xE0002000)
T6D78 000:460.581   CPU_ReadMem(4 bytes @ 0xE0001000)
T6D78 000:460.975   CPU_WriteMem(4 bytes @ 0xE0002008)
T6D78 000:460.981   CPU_WriteMem(4 bytes @ 0xE000200C)
T6D78 000:461.637   CPU_WriteMem(4 bytes @ 0xE0001004)
T6D78 000:465.322 - 5.154ms
T6D78 000:465.355 JLINK_IsHalted()
T6D78 000:468.519 - 3.191ms returns TRUE
T6D78 000:468.553 JLINK_ReadReg(R15 (PC))
T6D78 000:468.558 - 0.007ms returns 0x18000018
T6D78 000:468.597 JLINK_ClrBPEx(BPHandle = 0x00000001)
T6D78 000:468.602 - 0.007ms returns 0x00
T6D78 000:468.607 JLINK_ReadReg(R0)
T6D78 000:468.611 - 0.005ms returns 0x00000000
T6D78 000:469.304 JLINK_HasError()
T6D78 000:469.323 JLINK_WriteReg(R0, 0x11000000)
T6D78 000:469.336 - 0.020ms returns 0
T6D78 000:469.346 JLINK_WriteReg(R1, 0x00001000)
T6D78 000:469.351 - 0.006ms returns 0
T6D78 000:469.355 JLINK_WriteReg(R2, 0x000000FF)
T6D78 000:469.359 - 0.005ms returns 0
T6D78 000:469.363 JLINK_WriteReg(R3, 0x00000000)
T6D78 000:469.367 - 0.005ms returns 0
T6D78 000:469.371 JLINK_WriteReg(R4, 0x00000000)
T6D78 000:469.374 - 0.005ms returns 0
T6D78 000:469.378 JLINK_WriteReg(R5, 0x00000000)
T6D78 000:469.382 - 0.005ms returns 0
T6D78 000:469.386 JLINK_WriteReg(R6, 0x00000000)
T6D78 000:469.390 - 0.005ms returns 0
T6D78 000:469.394 JLINK_WriteReg(R7, 0x00000000)
T6D78 000:469.397 - 0.005ms returns 0
T6D78 000:469.401 JLINK_WriteReg(R8, 0x00000000)
T6D78 000:469.405 - 0.005ms returns 0
T6D78 000:469.409 JLINK_WriteReg(R9, 0x180000CC)
T6D78 000:469.413 - 0.005ms returns 0
T6D78 000:469.417 JLINK_WriteReg(R10, 0x00000000)
T6D78 000:469.420 - 0.005ms returns 0
T6D78 000:469.424 JLINK_WriteReg(R11, 0x00000000)
T6D78 000:469.428 - 0.005ms returns 0
T6D78 000:469.432 JLINK_WriteReg(R12, 0x00000000)
T6D78 000:469.435 - 0.005ms returns 0
T6D78 000:469.439 JLINK_WriteReg(R13 (SP), 0x18001018)
T6D78 000:469.444 - 0.005ms returns 0
T6D78 000:469.448 JLINK_WriteReg(R14, 0x18000019)
T6D78 000:469.451 - 0.005ms returns 0
T6D78 000:469.455 JLINK_WriteReg(R15 (PC), 0x180000A8)
T6D78 000:469.460 - 0.006ms returns 0
T6D78 000:469.464 JLINK_WriteReg(XPSR, 0x01000000)
T6D78 000:469.468 - 0.005ms returns 0
T6D78 000:469.472 JLINK_WriteReg(MSP, 0x18001018)
T6D78 000:469.476 - 0.005ms returns 0
T6D78 000:469.480 JLINK_WriteReg(PSP, 0x18001018)
T6D78 000:469.483 - 0.005ms returns 0
T6D78 000:469.487 JLINK_WriteReg(CFBP, 0x00000000)
T6D78 000:469.491 - 0.005ms returns 0
T6D78 000:469.495 JLINK_SetBPEx(Addr = 0x18000018, Type = 0xFFFFFFF2)
T6D78 000:469.500 - 0.006ms returns 0x00000002
T6D78 000:469.504 JLINK_Go()
T6D78 000:469.510   CPU_WriteMem(4 bytes @ 0xE0002000)
T6D78 000:469.886   CPU_ReadMem(4 bytes @ 0xE0001000)
T6D78 000:473.671 - 4.196ms
T6D78 000:473.721 JLINK_IsHalted()
T6D78 000:477.043 - 3.343ms returns TRUE
T6D78 000:477.084 JLINK_ReadReg(R15 (PC))
T6D78 000:477.111 - 0.034ms returns 0x18000018
T6D78 000:477.121 JLINK_ClrBPEx(BPHandle = 0x00000002)
T6D78 000:477.125 - 0.005ms returns 0x00
T6D78 000:477.129 JLINK_ReadReg(R0)
T6D78 000:477.133 - 0.034ms returns 0x00000001
T6D78 000:477.168 JLINK_HasError()
T6D78 000:477.172 JLINK_WriteReg(R0, 0x11000000)
T6D78 000:477.176 - 0.005ms returns 0
T6D78 000:477.180 JLINK_WriteReg(R1, 0x00001000)
T6D78 000:477.184 - 0.005ms returns 0
T6D78 000:477.188 JLINK_WriteReg(R2, 0x000000FF)
T6D78 000:477.192 - 0.005ms returns 0
T6D78 000:477.196 JLINK_WriteReg(R3, 0x00000000)
T6D78 000:477.199 - 0.005ms returns 0
T6D78 000:477.203 JLINK_WriteReg(R4, 0x00000000)
T6D78 000:477.207 - 0.005ms returns 0
T6D78 000:477.211 JLINK_WriteReg(R5, 0x00000000)
T6D78 000:477.214 - 0.005ms returns 0
T6D78 000:477.219 JLINK_WriteReg(R6, 0x00000000)
T6D78 000:477.222 - 0.005ms returns 0
T6D78 000:477.226 JLINK_WriteReg(R7, 0x00000000)
T6D78 000:477.230 - 0.005ms returns 0
T6D78 000:477.234 JLINK_WriteReg(R8, 0x00000000)
T6D78 000:477.237 - 0.005ms returns 0
T6D78 000:477.241 JLINK_WriteReg(R9, 0x180000CC)
T6D78 000:477.245 - 0.005ms returns 0
T6D78 000:477.249 JLINK_WriteReg(R10, 0x00000000)
T6D78 000:477.253 - 0.005ms returns 0
T6D78 000:477.257 JLINK_WriteReg(R11, 0x00000000)
T6D78 000:477.260 - 0.005ms returns 0
T6D78 000:477.264 JLINK_WriteReg(R12, 0x00000000)
T6D78 000:477.268 - 0.005ms returns 0
T6D78 000:477.272 JLINK_WriteReg(R13 (SP), 0x18001018)
T6D78 000:477.276 - 0.005ms returns 0
T6D78 000:477.280 JLINK_WriteReg(R14, 0x18000019)
T6D78 000:477.283 - 0.005ms returns 0
T6D78 000:477.287 JLINK_WriteReg(R15 (PC), 0x18000062)
T6D78 000:477.291 - 0.005ms returns 0
T6D78 000:477.295 JLINK_WriteReg(XPSR, 0x01000000)
T6D78 000:477.299 - 0.005ms returns 0
T6D78 000:477.303 JLINK_WriteReg(MSP, 0x18001018)
T6D78 000:477.306 - 0.005ms returns 0
T6D78 000:477.310 JLINK_WriteReg(PSP, 0x18001018)
T6D78 000:477.314 - 0.005ms returns 0
T6D78 000:477.318 JLINK_WriteReg(CFBP, 0x00000000)
T6D78 000:477.322 - 0.005ms returns 0
T6D78 000:477.326 JLINK_SetBPEx(Addr = 0x18000018, Type = 0xFFFFFFF2)
T6D78 000:477.330 - 0.005ms returns 0x00000003
T6D78 000:477.334 JLINK_Go()
T6D78 000:477.339   CPU_WriteMem(4 bytes @ 0xE0002000)
T6D78 000:477.754   CPU_ReadMem(4 bytes @ 0xE0001000)
T6D78 000:481.570 - 4.255ms
T6D78 000:481.609 JLINK_IsHalted()
T6D78 000:481.980 - 0.373ms returns FALSE
T6D78 000:481.985 JLINK_HasError()
T6D78 000:488.797 JLINK_IsHalted()
T6D78 000:492.330 - 3.561ms returns TRUE
T6D78 000:492.379 JLINK_ReadReg(R15 (PC))
T6D78 000:492.407 - 0.038ms returns 0x18000018
T6D78 000:492.433 JLINK_ClrBPEx(BPHandle = 0x00000003)
T6D78 000:492.457 - 0.035ms returns 0x00
T6D78 000:492.483 JLINK_ReadReg(R0)
T6D78 000:492.505 - 0.032ms returns 0x00000000
T6D78 000:492.891 JLINK_HasError()
T6D78 000:492.899 JLINK_WriteReg(R0, 0x1101E000)
T6D78 000:492.904 - 0.006ms returns 0
T6D78 000:492.908 JLINK_WriteReg(R1, 0x00001000)
T6D78 000:492.912 - 0.005ms returns 0
T6D78 000:492.916 JLINK_WriteReg(R2, 0x000000FF)
T6D78 000:492.919 - 0.005ms returns 0
T6D78 000:492.923 JLINK_WriteReg(R3, 0x00000000)
T6D78 000:492.927 - 0.005ms returns 0
T6D78 000:492.931 JLINK_WriteReg(R4, 0x00000000)
T6D78 000:492.935 - 0.005ms returns 0
T6D78 000:492.939 JLINK_WriteReg(R5, 0x00000000)
T6D78 000:492.942 - 0.005ms returns 0
T6D78 000:492.946 JLINK_WriteReg(R6, 0x00000000)
T6D78 000:492.950 - 0.005ms returns 0
T6D78 000:492.954 JLINK_WriteReg(R7, 0x00000000)
T6D78 000:492.958 - 0.005ms returns 0
T6D78 000:492.962 JLINK_WriteReg(R8, 0x00000000)
T6D78 000:492.965 - 0.005ms returns 0
T6D78 000:492.969 JLINK_WriteReg(R9, 0x180000CC)
T6D78 000:492.973 - 0.005ms returns 0
T6D78 000:492.977 JLINK_WriteReg(R10, 0x00000000)
T6D78 000:492.980 - 0.005ms returns 0
T6D78 000:492.984 JLINK_WriteReg(R11, 0x00000000)
T6D78 000:492.988 - 0.005ms returns 0
T6D78 000:492.992 JLINK_WriteReg(R12, 0x00000000)
T6D78 000:492.996 - 0.005ms returns 0
T6D78 000:493.000 JLINK_WriteReg(R13 (SP), 0x18001018)
T6D78 000:493.004 - 0.005ms returns 0
T6D78 000:493.008 JLINK_WriteReg(R14, 0x18000019)
T6D78 000:493.012 - 0.005ms returns 0
T6D78 000:493.016 JLINK_WriteReg(R15 (PC), 0x180000A8)
T6D78 000:493.019 - 0.005ms returns 0
T6D78 000:493.026 JLINK_WriteReg(XPSR, 0x01000000)
T6D78 000:493.031 - 0.007ms returns 0
T6D78 000:493.035 JLINK_WriteReg(MSP, 0x18001018)
T6D78 000:493.039 - 0.005ms returns 0
T6D78 000:493.043 JLINK_WriteReg(PSP, 0x18001018)
T6D78 000:493.046 - 0.005ms returns 0
T6D78 000:493.050 JLINK_WriteReg(CFBP, 0x00000000)
T6D78 000:493.054 - 0.005ms returns 0
T6D78 000:493.058 JLINK_SetBPEx(Addr = 0x18000018, Type = 0xFFFFFFF2)
T6D78 000:493.063 - 0.006ms returns 0x00000004
T6D78 000:493.067 JLINK_Go()
T6D78 000:493.073   CPU_WriteMem(4 bytes @ 0xE0002000)
T6D78 000:493.497   CPU_ReadMem(4 bytes @ 0xE0001000)
T6D78 000:497.310 - 4.257ms
T6D78 000:497.347 JLINK_IsHalted()
T6D78 000:497.854 - 0.509ms returns FALSE
T6D78 000:497.860 JLINK_HasError()
T6D78 000:499.879 JLINK_IsHalted()
T6D78 000:503.306 - 3.445ms returns TRUE
T6D78 000:503.332 JLINK_ReadReg(R15 (PC))
T6D78 000:503.342 - 0.014ms returns 0x18000018
T6D78 000:503.351 JLINK_ClrBPEx(BPHandle = 0x00000004)
T6D78 000:503.358 - 0.011ms returns 0x00
T6D78 000:503.367 JLINK_ReadReg(R0)
T6D78 000:503.374 - 0.010ms returns 0x00000001
T6D78 000:503.382 JLINK_HasError()
T6D78 000:503.390 JLINK_WriteReg(R0, 0x1101E000)
T6D78 000:503.398 - 0.011ms returns 0
T6D78 000:503.405 JLINK_WriteReg(R1, 0x00001000)
T6D78 000:503.412 - 0.010ms returns 0
T6D78 000:503.420 JLINK_WriteReg(R2, 0x000000FF)
T6D78 000:503.427 - 0.010ms returns 0
T6D78 000:503.435 JLINK_WriteReg(R3, 0x00000000)
T6D78 000:503.441 - 0.010ms returns 0
T6D78 000:503.449 JLINK_WriteReg(R4, 0x00000000)
T6D78 000:503.456 - 0.010ms returns 0
T6D78 000:503.464 JLINK_WriteReg(R5, 0x00000000)
T6D78 000:503.470 - 0.010ms returns 0
T6D78 000:503.478 JLINK_WriteReg(R6, 0x00000000)
T6D78 000:503.485 - 0.010ms returns 0
T6D78 000:503.492 JLINK_WriteReg(R7, 0x00000000)
T6D78 000:503.499 - 0.010ms returns 0
T6D78 000:503.507 JLINK_WriteReg(R8, 0x00000000)
T6D78 000:503.513 - 0.010ms returns 0
T6D78 000:503.521 JLINK_WriteReg(R9, 0x180000CC)
T6D78 000:503.528 - 0.010ms returns 0
T6D78 000:503.535 JLINK_WriteReg(R10, 0x00000000)
T6D78 000:503.542 - 0.010ms returns 0
T6D78 000:503.550 JLINK_WriteReg(R11, 0x00000000)
T6D78 000:503.556 - 0.010ms returns 0
T6D78 000:503.564 JLINK_WriteReg(R12, 0x00000000)
T6D78 000:503.571 - 0.010ms returns 0
T6D78 000:503.578 JLINK_WriteReg(R13 (SP), 0x18001018)
T6D78 000:503.585 - 0.010ms returns 0
T6D78 000:503.593 JLINK_WriteReg(R14, 0x18000019)
T6D78 000:503.600 - 0.010ms returns 0
T6D78 000:503.607 JLINK_WriteReg(R15 (PC), 0x18000062)
T6D78 000:503.614 - 0.010ms returns 0
T6D78 000:503.622 JLINK_WriteReg(XPSR, 0x01000000)
T6D78 000:503.629 - 0.010ms returns 0
T6D78 000:503.636 JLINK_WriteReg(MSP, 0x18001018)
T6D78 000:503.643 - 0.010ms returns 0
T6D78 000:503.651 JLINK_WriteReg(PSP, 0x18001018)
T6D78 000:503.658 - 0.010ms returns 0
T6D78 000:503.665 JLINK_WriteReg(CFBP, 0x00000000)
T6D78 000:503.672 - 0.010ms returns 0
T6D78 000:503.680 JLINK_SetBPEx(Addr = 0x18000018, Type = 0xFFFFFFF2)
T6D78 000:503.688 - 0.011ms returns 0x00000005
T6D78 000:503.696 JLINK_Go()
T6D78 000:503.707   CPU_WriteMem(4 bytes @ 0xE0002000)
T6D78 000:504.100   CPU_ReadMem(4 bytes @ 0xE0001000)
T6D78 000:507.452 - 3.761ms
T6D78 000:507.462 JLINK_IsHalted()
T6D78 000:507.888 - 0.438ms returns FALSE
T6D78 000:507.918 JLINK_HasError()
T6D78 000:509.816 JLINK_IsHalted()
T6D78 000:510.128 - 0.318ms returns FALSE
T6D78 000:510.137 JLINK_HasError()
T6D78 000:512.138 JLINK_IsHalted()
T6D78 000:515.571 - 3.446ms returns TRUE
T6D78 000:515.602 JLINK_ReadReg(R15 (PC))
T6D78 000:515.628 - 0.037ms returns 0x18000018
T6D78 000:515.655 JLINK_ClrBPEx(BPHandle = 0x00000005)
T6D78 000:515.679 - 0.034ms returns 0x00
T6D78 000:515.704 JLINK_ReadReg(R0)
T6D78 000:515.726 - 0.032ms returns 0x00000000
T6D78 000:516.119 JLINK_HasError()
T6D78 000:516.129 JLINK_WriteReg(R0, 0x00000001)
T6D78 000:516.135 - 0.008ms returns 0
T6D78 000:516.140 JLINK_WriteReg(R1, 0x00001000)
T6D78 000:516.145 - 0.006ms returns 0
T6D78 000:516.150 JLINK_WriteReg(R2, 0x000000FF)
T6D78 000:516.157 - 0.011ms returns 0
T6D78 000:516.164 JLINK_WriteReg(R3, 0x00000000)
T6D78 000:516.169 - 0.006ms returns 0
T6D78 000:516.174 JLINK_WriteReg(R4, 0x00000000)
T6D78 000:516.178 - 0.006ms returns 0
T6D78 000:516.183 JLINK_WriteReg(R5, 0x00000000)
T6D78 000:516.187 - 0.006ms returns 0
T6D78 000:516.192 JLINK_WriteReg(R6, 0x00000000)
T6D78 000:516.197 - 0.006ms returns 0
T6D78 000:516.202 JLINK_WriteReg(R7, 0x00000000)
T6D78 000:516.206 - 0.006ms returns 0
T6D78 000:516.211 JLINK_WriteReg(R8, 0x00000000)
T6D78 000:516.215 - 0.006ms returns 0
T6D78 000:516.220 JLINK_WriteReg(R9, 0x180000CC)
T6D78 000:516.225 - 0.006ms returns 0
T6D78 000:516.230 JLINK_WriteReg(R10, 0x00000000)
T6D78 000:516.234 - 0.006ms returns 0
T6D78 000:516.239 JLINK_WriteReg(R11, 0x00000000)
T6D78 000:516.244 - 0.006ms returns 0
T6D78 000:516.249 JLINK_WriteReg(R12, 0x00000000)
T6D78 000:516.253 - 0.006ms returns 0
T6D78 000:516.258 JLINK_WriteReg(R13 (SP), 0x18001018)
T6D78 000:516.263 - 0.006ms returns 0
T6D78 000:516.268 JLINK_WriteReg(R14, 0x18000019)
T6D78 000:516.272 - 0.006ms returns 0
T6D78 000:516.277 JLINK_WriteReg(R15 (PC), 0x1800003C)
T6D78 000:516.282 - 0.006ms returns 0
T6D78 000:516.287 JLINK_WriteReg(XPSR, 0x01000000)
T6D78 000:516.291 - 0.006ms returns 0
T6D78 000:516.296 JLINK_WriteReg(MSP, 0x18001018)
T6D78 000:516.300 - 0.006ms returns 0
T6D78 000:516.305 JLINK_WriteReg(PSP, 0x18001018)
T6D78 000:516.310 - 0.006ms returns 0
T6D78 000:516.315 JLINK_WriteReg(CFBP, 0x00000000)
T6D78 000:516.319 - 0.006ms returns 0
T6D78 000:516.324 JLINK_SetBPEx(Addr = 0x18000018, Type = 0xFFFFFFF2)
T6D78 000:516.329 - 0.007ms returns 0x00000006
T6D78 000:516.335 JLINK_Go()
T6D78 000:516.342   CPU_WriteMem(4 bytes @ 0xE0002000)
T6D78 000:516.730   CPU_ReadMem(4 bytes @ 0xE0001000)
T6D78 000:520.139 - 3.810ms
T6D78 000:520.150 JLINK_IsHalted()
T6D78 000:523.207 - 3.070ms returns TRUE
T6D78 000:523.243 JLINK_ReadReg(R15 (PC))
T6D78 000:523.269 - 0.032ms returns 0x18000018
T6D78 000:523.279 JLINK_ClrBPEx(BPHandle = 0x00000006)
T6D78 000:523.285 - 0.007ms returns 0x00
T6D78 000:523.290 JLINK_ReadReg(R0)
T6D78 000:523.296 - 0.007ms returns 0x00000000
T6D78 000:583.171 JLINK_WriteMem(0x18000018, 0xD8 Bytes, ...)
T6D78 000:583.189   Data:  00 BE 0A E0 0D 78 2D 06 68 40 08 24 40 00 00 D3 ...
T6D78 000:583.216   CPU_WriteMem(216 bytes @ 0x18000018)
T6D78 000:585.179 - 2.017ms returns 0xD8
T6D78 000:585.366 JLINK_HasError()
T6D78 000:585.374 JLINK_WriteReg(R0, 0x11000000)
T6D78 000:585.380 - 0.008ms returns 0
T6D78 000:585.385 JLINK_WriteReg(R1, 0x00B71B00)
T6D78 000:585.389 - 0.006ms returns 0
T6D78 000:585.394 JLINK_WriteReg(R2, 0x00000002)
T6D78 000:585.398 - 0.006ms returns 0
T6D78 000:585.402 JLINK_WriteReg(R3, 0x00000000)
T6D78 000:585.406 - 0.005ms returns 0
T6D78 000:585.411 JLINK_WriteReg(R4, 0x00000000)
T6D78 000:585.415 - 0.005ms returns 0
T6D78 000:585.419 JLINK_WriteReg(R5, 0x00000000)
T6D78 000:585.423 - 0.005ms returns 0
T6D78 000:585.427 JLINK_WriteReg(R6, 0x00000000)
T6D78 000:585.431 - 0.005ms returns 0
T6D78 000:585.436 JLINK_WriteReg(R7, 0x00000000)
T6D78 000:585.440 - 0.005ms returns 0
T6D78 000:585.444 JLINK_WriteReg(R8, 0x00000000)
T6D78 000:585.448 - 0.005ms returns 0
T6D78 000:585.452 JLINK_WriteReg(R9, 0x180000CC)
T6D78 000:585.456 - 0.005ms returns 0
T6D78 000:585.461 JLINK_WriteReg(R10, 0x00000000)
T6D78 000:585.465 - 0.005ms returns 0
T6D78 000:585.469 JLINK_WriteReg(R11, 0x00000000)
T6D78 000:585.473 - 0.005ms returns 0
T6D78 000:585.477 JLINK_WriteReg(R12, 0x00000000)
T6D78 000:585.481 - 0.005ms returns 0
T6D78 000:585.485 JLINK_WriteReg(R13 (SP), 0x18001018)
T6D78 000:585.490 - 0.006ms returns 0
T6D78 000:585.494 JLINK_WriteReg(R14, 0x18000019)
T6D78 000:585.498 - 0.005ms returns 0
T6D78 000:585.503 JLINK_WriteReg(R15 (PC), 0x18000038)
T6D78 000:585.507 - 0.006ms returns 0
T6D78 000:585.511 JLINK_WriteReg(XPSR, 0x01000000)
T6D78 000:585.515 - 0.005ms returns 0
T6D78 000:585.520 JLINK_WriteReg(MSP, 0x18001018)
T6D78 000:585.524 - 0.008ms returns 0
T6D78 000:585.533 JLINK_WriteReg(PSP, 0x18001018)
T6D78 000:585.537 - 0.005ms returns 0
T6D78 000:585.541 JLINK_WriteReg(CFBP, 0x00000000)
T6D78 000:585.545 - 0.005ms returns 0
T6D78 000:585.550 JLINK_SetBPEx(Addr = 0x18000018, Type = 0xFFFFFFF2)
T6D78 000:585.555 - 0.007ms returns 0x00000007
T6D78 000:585.560 JLINK_Go()
T6D78 000:585.568   CPU_WriteMem(4 bytes @ 0xE0002000)
T6D78 000:585.963   CPU_ReadMem(4 bytes @ 0xE0001000)
T6D78 000:589.482 - 3.926ms
T6D78 000:589.491 JLINK_IsHalted()
T6D78 000:592.575 - 3.102ms returns TRUE
T6D78 000:592.614 JLINK_ReadReg(R15 (PC))
T6D78 000:592.641 - 0.037ms returns 0x18000018
T6D78 000:592.665 JLINK_ClrBPEx(BPHandle = 0x00000007)
T6D78 000:592.672 - 0.010ms returns 0x00
T6D78 000:592.680 JLINK_ReadReg(R0)
T6D78 000:592.687 - 0.010ms returns 0x00000000
T6D78 000:592.937 JLINK_WriteMem(0x180000F0, 0x80 Bytes, ...)
T6D78 000:592.947   Data:  80 02 00 18 01 01 00 11 0B 01 00 11 59 02 00 11 ...
T6D78 000:592.965   CPU_WriteMem(128 bytes @ 0x180000F0)
T6D78 000:594.244 - 1.329ms returns 0x80
T6D78 000:594.289 JLINK_HasError()
T6D78 000:594.317 JLINK_WriteReg(R0, 0x11000000)
T6D78 000:594.346 - 0.033ms returns 0
T6D78 000:594.354 JLINK_WriteReg(R1, 0x00000080)
T6D78 000:594.361 - 0.009ms returns 0
T6D78 000:594.368 JLINK_WriteReg(R2, 0x180000F0)
T6D78 000:594.375 - 0.009ms returns 0
T6D78 000:594.382 JLINK_WriteReg(R3, 0x00000000)
T6D78 000:594.388 - 0.009ms returns 0
T6D78 000:594.395 JLINK_WriteReg(R4, 0x00000000)
T6D78 000:594.402 - 0.009ms returns 0
T6D78 000:594.409 JLINK_WriteReg(R5, 0x00000000)
T6D78 000:594.415 - 0.009ms returns 0
T6D78 000:594.422 JLINK_WriteReg(R6, 0x00000000)
T6D78 000:594.429 - 0.009ms returns 0
T6D78 000:594.436 JLINK_WriteReg(R7, 0x00000000)
T6D78 000:594.442 - 0.009ms returns 0
T6D78 000:594.449 JLINK_WriteReg(R8, 0x00000000)
T6D78 000:594.456 - 0.009ms returns 0
T6D78 000:594.463 JLINK_WriteReg(R9, 0x180000CC)
T6D78 000:594.470 - 0.009ms returns 0
T6D78 000:594.477 JLINK_WriteReg(R10, 0x00000000)
T6D78 000:594.483 - 0.009ms returns 0
T6D78 000:594.490 JLINK_WriteReg(R11, 0x00000000)
T6D78 000:594.497 - 0.009ms returns 0
T6D78 000:594.504 JLINK_WriteReg(R12, 0x00000000)
T6D78 000:594.510 - 0.009ms returns 0
T6D78 000:594.517 JLINK_WriteReg(R13 (SP), 0x18001018)
T6D78 000:594.524 - 0.010ms returns 0
T6D78 000:594.531 JLINK_WriteReg(R14, 0x18000019)
T6D78 000:594.538 - 0.009ms returns 0
T6D78 000:594.545 JLINK_WriteReg(R15 (PC), 0x1800006E)
T6D78 000:594.552 - 0.009ms returns 0
T6D78 000:594.559 JLINK_WriteReg(XPSR, 0x01000000)
T6D78 000:594.565 - 0.009ms returns 0
T6D78 000:594.572 JLINK_WriteReg(MSP, 0x18001018)
T6D78 000:594.579 - 0.009ms returns 0
T6D78 000:594.586 JLINK_WriteReg(PSP, 0x18001018)
T6D78 000:594.592 - 0.009ms returns 0
T6D78 000:594.599 JLINK_WriteReg(CFBP, 0x00000000)
T6D78 000:594.606 - 0.009ms returns 0
T6D78 000:594.613 JLINK_SetBPEx(Addr = 0x18000018, Type = 0xFFFFFFF2)
T6D78 000:594.620 - 0.010ms returns 0x00000008
T6D78 000:594.628 JLINK_Go()
T6D78 000:594.637   CPU_WriteMem(4 bytes @ 0xE0002000)
T6D78 000:595.036   CPU_ReadMem(4 bytes @ 0xE0001000)
T6D78 000:598.323 - 3.709ms
T6D78 000:598.354 JLINK_IsHalted()
T6D78 000:598.732 - 0.381ms returns FALSE
T6D78 000:598.742 JLINK_HasError()
T6D78 000:603.678 JLINK_IsHalted()
T6D78 000:606.984 - 3.320ms returns TRUE
T6D78 000:607.019 JLINK_ReadReg(R15 (PC))
T6D78 000:607.046 - 0.036ms returns 0x18000018
T6D78 000:607.061 JLINK_ClrBPEx(BPHandle = 0x00000008)
T6D78 000:607.068 - 0.010ms returns 0x00
T6D78 000:607.076 JLINK_ReadReg(R0)
T6D78 000:607.083 - 0.010ms returns 0x00000000
T6D78 000:607.465 JLINK_WriteMem(0x180000F0, 0x80 Bytes, ...)
T6D78 000:607.476   Data:  00 F0 02 F8 00 F0 2C F8 0A A0 90 E8 00 0C 82 44 ...
T6D78 000:607.493   CPU_WriteMem(128 bytes @ 0x180000F0)
T6D78 000:608.755 - 1.304ms returns 0x80
T6D78 000:608.788 JLINK_HasError()
T6D78 000:608.814 JLINK_WriteReg(R0, 0x11000080)
T6D78 000:608.841 - 0.037ms returns 0
T6D78 000:608.865 JLINK_WriteReg(R1, 0x00000080)
T6D78 000:608.928 - 0.068ms returns 0
T6D78 000:608.939 JLINK_WriteReg(R2, 0x180000F0)
T6D78 000:608.949 - 0.014ms returns 0
T6D78 000:608.959 JLINK_WriteReg(R3, 0x00000000)
T6D78 000:608.969 - 0.014ms returns 0
T6D78 000:608.979 JLINK_WriteReg(R4, 0x00000000)
T6D78 000:608.985 - 0.010ms returns 0
T6D78 000:608.993 JLINK_WriteReg(R5, 0x00000000)
T6D78 000:608.999 - 0.022ms returns 0
T6D78 000:609.020 JLINK_WriteReg(R6, 0x00000000)
T6D78 000:609.062 - 0.046ms returns 0
T6D78 000:609.072 JLINK_WriteReg(R7, 0x00000000)
T6D78 000:609.079 - 0.010ms returns 0
T6D78 000:609.087 JLINK_WriteReg(R8, 0x00000000)
T6D78 000:609.094 - 0.010ms returns 0
T6D78 000:609.101 JLINK_WriteReg(R9, 0x180000CC)
T6D78 000:609.108 - 0.010ms returns 0
T6D78 000:609.116 JLINK_WriteReg(R10, 0x00000000)
T6D78 000:609.123 - 0.010ms returns 0
T6D78 000:609.131 JLINK_WriteReg(R11, 0x00000000)
T6D78 000:609.137 - 0.010ms returns 0
T6D78 000:609.145 JLINK_WriteReg(R12, 0x00000000)
T6D78 000:609.152 - 0.010ms returns 0
T6D78 000:609.159 JLINK_WriteReg(R13 (SP), 0x18001018)
T6D78 000:609.167 - 0.010ms returns 0
T6D78 000:609.175 JLINK_WriteReg(R14, 0x18000019)
T6D78 000:609.182 - 0.010ms returns 0
T6D78 000:609.189 JLINK_WriteReg(R15 (PC), 0x1800006E)
T6D78 000:609.197 - 0.010ms returns 0
T6D78 000:609.204 JLINK_WriteReg(XPSR, 0x01000000)
T6D78 000:609.212 - 0.010ms returns 0
T6D78 000:609.219 JLINK_WriteReg(MSP, 0x18001018)
T6D78 000:609.227 - 0.011ms returns 0
T6D78 000:609.236 JLINK_WriteReg(PSP, 0x18001018)
T6D78 000:609.243 - 0.010ms returns 0
T6D78 000:609.252 JLINK_WriteReg(CFBP, 0x00000000)
T6D78 000:609.260 - 0.012ms returns 0
T6D78 000:609.270 JLINK_SetBPEx(Addr = 0x18000018, Type = 0xFFFFFFF2)
T6D78 000:609.279 - 0.012ms returns 0x00000009
T6D78 000:609.287 JLINK_Go()
T6D78 000:609.298   CPU_WriteMem(4 bytes @ 0xE0002000)
T6D78 000:609.679   CPU_ReadMem(4 bytes @ 0xE0001000)
T6D78 000:613.096 - 3.823ms
T6D78 000:613.130 JLINK_IsHalted()
T6D78 000:613.519 - 0.392ms returns FALSE
T6D78 000:613.528 JLINK_HasError()
T6D78 000:615.523 JLINK_IsHalted()
T6D78 000:615.922 - 0.404ms returns FALSE
T6D78 000:615.933 JLINK_HasError()
T6D78 000:617.507 JLINK_IsHalted()
T6D78 000:620.626 - 3.130ms returns TRUE
T6D78 000:620.645 JLINK_ReadReg(R15 (PC))
T6D78 000:620.656 - 0.014ms returns 0x18000018
T6D78 000:620.665 JLINK_ClrBPEx(BPHandle = 0x00000009)
T6D78 000:620.674 - 0.012ms returns 0x00
T6D78 000:620.682 JLINK_ReadReg(R0)
T6D78 000:620.690 - 0.011ms returns 0x00000000
T6D78 000:621.161 JLINK_WriteMem(0x180000F0, 0x80 Bytes, ...)
T6D78 000:621.175   Data:  0F 48 80 47 0F 48 00 47 FE E7 FE E7 FE E7 FE E7 ...
T6D78 000:621.195   CPU_WriteMem(128 bytes @ 0x180000F0)
T6D78 000:622.451 - 1.303ms returns 0x80
T6D78 000:622.484 JLINK_HasError()
T6D78 000:622.510 JLINK_WriteReg(R0, 0x11000100)
T6D78 000:622.524 - 0.017ms returns 0
T6D78 000:622.533 JLINK_WriteReg(R1, 0x00000080)
T6D78 000:622.540 - 0.010ms returns 0
T6D78 000:622.548 JLINK_WriteReg(R2, 0x180000F0)
T6D78 000:622.555 - 0.010ms returns 0
T6D78 000:622.563 JLINK_WriteReg(R3, 0x00000000)
T6D78 000:622.570 - 0.010ms returns 0
T6D78 000:622.578 JLINK_WriteReg(R4, 0x00000000)
T6D78 000:622.586 - 0.010ms returns 0
T6D78 000:622.594 JLINK_WriteReg(R5, 0x00000000)
T6D78 000:622.601 - 0.010ms returns 0
T6D78 000:622.609 JLINK_WriteReg(R6, 0x00000000)
T6D78 000:622.616 - 0.010ms returns 0
T6D78 000:622.624 JLINK_WriteReg(R7, 0x00000000)
T6D78 000:622.631 - 0.010ms returns 0
T6D78 000:622.639 JLINK_WriteReg(R8, 0x00000000)
T6D78 000:622.646 - 0.010ms returns 0
T6D78 000:622.654 JLINK_WriteReg(R9, 0x180000CC)
T6D78 000:622.661 - 0.010ms returns 0
T6D78 000:622.670 JLINK_WriteReg(R10, 0x00000000)
T6D78 000:622.677 - 0.011ms returns 0
T6D78 000:622.686 JLINK_WriteReg(R11, 0x00000000)
T6D78 000:622.693 - 0.011ms returns 0
T6D78 000:622.701 JLINK_WriteReg(R12, 0x00000000)
T6D78 000:622.709 - 0.011ms returns 0
T6D78 000:622.717 JLINK_WriteReg(R13 (SP), 0x18001018)
T6D78 000:622.725 - 0.011ms returns 0
T6D78 000:622.734 JLINK_WriteReg(R14, 0x18000019)
T6D78 000:622.789 - 0.062ms returns 0
T6D78 000:622.801 JLINK_WriteReg(R15 (PC), 0x1800006E)
T6D78 000:622.809 - 0.011ms returns 0
T6D78 000:622.818 JLINK_WriteReg(XPSR, 0x01000000)
T6D78 000:622.825 - 0.011ms returns 0
T6D78 000:622.834 JLINK_WriteReg(MSP, 0x18001018)
T6D78 000:622.841 - 0.011ms returns 0
T6D78 000:622.850 JLINK_WriteReg(PSP, 0x18001018)
T6D78 000:622.858 - 0.011ms returns 0
T6D78 000:622.866 JLINK_WriteReg(CFBP, 0x00000000)
T6D78 000:622.873 - 0.011ms returns 0
T6D78 000:622.882 JLINK_SetBPEx(Addr = 0x18000018, Type = 0xFFFFFFF2)
T6D78 000:622.891 - 0.012ms returns 0x0000000A
T6D78 000:622.900 JLINK_Go()
T6D78 000:622.911   CPU_WriteMem(4 bytes @ 0xE0002000)
T6D78 000:623.304   CPU_ReadMem(4 bytes @ 0xE0001000)
T6D78 000:626.645 - 3.756ms
T6D78 000:626.666 JLINK_IsHalted()
T6D78 000:627.040 - 0.378ms returns FALSE
T6D78 000:627.052 JLINK_HasError()
T6D78 000:629.043 JLINK_IsHalted()
T6D78 000:629.467 - 0.430ms returns FALSE
T6D78 000:629.480 JLINK_HasError()
T6D78 000:631.038 JLINK_IsHalted()
T6D78 000:634.170 - 3.148ms returns TRUE
T6D78 000:634.197 JLINK_ReadReg(R15 (PC))
T6D78 000:634.210 - 0.018ms returns 0x18000018
T6D78 000:634.221 JLINK_ClrBPEx(BPHandle = 0x0000000A)
T6D78 000:634.232 - 0.014ms returns 0x00
T6D78 000:634.243 JLINK_ReadReg(R0)
T6D78 000:634.252 - 0.013ms returns 0x00000000
T6D78 000:634.759 JLINK_WriteMem(0x180000F0, 0x80 Bytes, ...)
T6D78 000:634.773   Data:  00 06 4F F0 00 07 4F F0 00 08 4F F0 00 0B AC 46 ...
T6D78 000:634.795   CPU_WriteMem(128 bytes @ 0x180000F0)
T6D78 000:636.071 - 1.333ms returns 0x80
T6D78 000:636.114 JLINK_HasError()
T6D78 000:636.140 JLINK_WriteReg(R0, 0x11000180)
T6D78 000:636.150 - 0.013ms returns 0
T6D78 000:636.158 JLINK_WriteReg(R1, 0x00000080)
T6D78 000:636.166 - 0.011ms returns 0
T6D78 000:636.174 JLINK_WriteReg(R2, 0x180000F0)
T6D78 000:636.182 - 0.010ms returns 0
T6D78 000:636.190 JLINK_WriteReg(R3, 0x00000000)
T6D78 000:636.197 - 0.010ms returns 0
T6D78 000:636.205 JLINK_WriteReg(R4, 0x00000000)
T6D78 000:636.212 - 0.010ms returns 0
T6D78 000:636.220 JLINK_WriteReg(R5, 0x00000000)
T6D78 000:636.227 - 0.010ms returns 0
T6D78 000:636.235 JLINK_WriteReg(R6, 0x00000000)
T6D78 000:636.243 - 0.010ms returns 0
T6D78 000:636.250 JLINK_WriteReg(R7, 0x00000000)
T6D78 000:636.258 - 0.010ms returns 0
T6D78 000:636.265 JLINK_WriteReg(R8, 0x00000000)
T6D78 000:636.273 - 0.010ms returns 0
T6D78 000:636.280 JLINK_WriteReg(R9, 0x180000CC)
T6D78 000:636.288 - 0.010ms returns 0
T6D78 000:636.295 JLINK_WriteReg(R10, 0x00000000)
T6D78 000:636.303 - 0.011ms returns 0
T6D78 000:636.312 JLINK_WriteReg(R11, 0x00000000)
T6D78 000:636.319 - 0.011ms returns 0
T6D78 000:636.327 JLINK_WriteReg(R12, 0x00000000)
T6D78 000:636.335 - 0.011ms returns 0
T6D78 000:636.343 JLINK_WriteReg(R13 (SP), 0x18001018)
T6D78 000:636.352 - 0.012ms returns 0
T6D78 000:636.360 JLINK_WriteReg(R14, 0x18000019)
T6D78 000:636.368 - 0.011ms returns 0
T6D78 000:636.376 JLINK_WriteReg(R15 (PC), 0x1800006E)
T6D78 000:636.384 - 0.011ms returns 0
T6D78 000:636.392 JLINK_WriteReg(XPSR, 0x01000000)
T6D78 000:636.400 - 0.011ms returns 0
T6D78 000:636.408 JLINK_WriteReg(MSP, 0x18001018)
T6D78 000:636.416 - 0.011ms returns 0
T6D78 000:636.424 JLINK_WriteReg(PSP, 0x18001018)
T6D78 000:636.432 - 0.011ms returns 0
T6D78 000:636.440 JLINK_WriteReg(CFBP, 0x00000000)
T6D78 000:636.448 - 0.011ms returns 0
T6D78 000:636.456 JLINK_SetBPEx(Addr = 0x18000018, Type = 0xFFFFFFF2)
T6D78 000:636.465 - 0.012ms returns 0x0000000B
T6D78 000:636.474 JLINK_Go()
T6D78 000:636.485   CPU_WriteMem(4 bytes @ 0xE0002000)
T6D78 000:636.889   CPU_ReadMem(4 bytes @ 0xE0001000)
T6D78 000:640.263 - 3.799ms
T6D78 000:640.281 JLINK_IsHalted()
T6D78 000:640.669 - 0.393ms returns FALSE
T6D78 000:640.681 JLINK_HasError()
T6D78 000:643.574 JLINK_IsHalted()
T6D78 000:646.723 - 3.158ms returns TRUE
T6D78 000:646.743 JLINK_ReadReg(R15 (PC))
T6D78 000:646.755 - 0.016ms returns 0x18000018
T6D78 000:646.766 JLINK_ClrBPEx(BPHandle = 0x0000000B)
T6D78 000:646.832 - 0.074ms returns 0x00
T6D78 000:646.847 JLINK_ReadReg(R0)
T6D78 000:646.857 - 0.014ms returns 0x00000000
T6D78 000:647.369 JLINK_WriteMem(0x180000F0, 0x80 Bytes, ...)
T6D78 000:647.386   Data:  01 98 00 78 9D F8 03 10 48 40 01 99 08 70 02 B0 ...
T6D78 000:647.407   CPU_WriteMem(128 bytes @ 0x180000F0)
T6D78 000:648.703 - 1.339ms returns 0x80
T6D78 000:648.716 JLINK_HasError()
T6D78 000:648.726 JLINK_WriteReg(R0, 0x11000200)
T6D78 000:648.736 - 0.013ms returns 0
T6D78 000:648.745 JLINK_WriteReg(R1, 0x00000080)
T6D78 000:648.753 - 0.012ms returns 0
T6D78 000:648.762 JLINK_WriteReg(R2, 0x180000F0)
T6D78 000:648.771 - 0.012ms returns 0
T6D78 000:648.780 JLINK_WriteReg(R3, 0x00000000)
T6D78 000:648.788 - 0.012ms returns 0
T6D78 000:648.797 JLINK_WriteReg(R4, 0x00000000)
T6D78 000:648.805 - 0.012ms returns 0
T6D78 000:648.814 JLINK_WriteReg(R5, 0x00000000)
T6D78 000:648.823 - 0.012ms returns 0
T6D78 000:648.832 JLINK_WriteReg(R6, 0x00000000)
T6D78 000:648.840 - 0.012ms returns 0
T6D78 000:648.849 JLINK_WriteReg(R7, 0x00000000)
T6D78 000:648.857 - 0.012ms returns 0
T6D78 000:648.866 JLINK_WriteReg(R8, 0x00000000)
T6D78 000:648.875 - 0.012ms returns 0
T6D78 000:648.884 JLINK_WriteReg(R9, 0x180000CC)
T6D78 000:648.892 - 0.012ms returns 0
T6D78 000:648.901 JLINK_WriteReg(R10, 0x00000000)
T6D78 000:648.910 - 0.012ms returns 0
T6D78 000:648.919 JLINK_WriteReg(R11, 0x00000000)
T6D78 000:648.927 - 0.012ms returns 0
T6D78 000:648.936 JLINK_WriteReg(R12, 0x00000000)
T6D78 000:648.945 - 0.012ms returns 0
T6D78 000:648.955 JLINK_WriteReg(R13 (SP), 0x18001018)
T6D78 000:648.964 - 0.013ms returns 0
T6D78 000:648.974 JLINK_WriteReg(R14, 0x18000019)
T6D78 000:648.983 - 0.013ms returns 0
T6D78 000:648.992 JLINK_WriteReg(R15 (PC), 0x1800006E)
T6D78 000:649.001 - 0.012ms returns 0
T6D78 000:649.011 JLINK_WriteReg(XPSR, 0x01000000)
T6D78 000:649.019 - 0.012ms returns 0
T6D78 000:649.029 JLINK_WriteReg(MSP, 0x18001018)
T6D78 000:649.038 - 0.012ms returns 0
T6D78 000:649.047 JLINK_WriteReg(PSP, 0x18001018)
T6D78 000:649.056 - 0.012ms returns 0
T6D78 000:649.065 JLINK_WriteReg(CFBP, 0x00000000)
T6D78 000:649.074 - 0.012ms returns 0
T6D78 000:649.084 JLINK_SetBPEx(Addr = 0x18000018, Type = 0xFFFFFFF2)
T6D78 000:649.094 - 0.014ms returns 0x0000000C
T6D78 000:649.104 JLINK_Go()
T6D78 000:649.116   CPU_WriteMem(4 bytes @ 0xE0002000)
T6D78 000:649.583   CPU_ReadMem(4 bytes @ 0xE0001000)
T6D78 000:653.095 - 4.025ms
T6D78 000:653.140 JLINK_IsHalted()
T6D78 000:653.462 - 0.326ms returns FALSE
T6D78 000:653.473 JLINK_HasError()
T6D78 000:655.496 JLINK_IsHalted()
T6D78 000:656.005 - 0.532ms returns FALSE
T6D78 000:656.041 JLINK_HasError()
T6D78 000:660.462 JLINK_IsHalted()
T6D78 000:663.485 - 3.036ms returns TRUE
T6D78 000:663.504 JLINK_ReadReg(R15 (PC))
T6D78 000:663.512 - 0.009ms returns 0x18000018
T6D78 000:663.516 JLINK_ClrBPEx(BPHandle = 0x0000000C)
T6D78 000:663.521 - 0.006ms returns 0x00
T6D78 000:663.525 JLINK_ReadReg(R0)
T6D78 000:663.529 - 0.005ms returns 0x00000000
T6D78 000:663.751 JLINK_WriteMem(0x180000F0, 0x80 Bytes, ...)
T6D78 000:663.758   Data:  08 70 45 F2 34 01 C5 F2 00 01 08 70 45 F2 38 01 ...
T6D78 000:663.769   CPU_WriteMem(128 bytes @ 0x180000F0)
T6D78 000:664.987 - 1.247ms returns 0x80
T6D78 000:665.005 JLINK_HasError()
T6D78 000:665.025 JLINK_WriteReg(R0, 0x11000280)
T6D78 000:665.031 - 0.008ms returns 0
T6D78 000:665.035 JLINK_WriteReg(R1, 0x00000080)
T6D78 000:665.039 - 0.005ms returns 0
T6D78 000:665.043 JLINK_WriteReg(R2, 0x180000F0)
T6D78 000:665.047 - 0.005ms returns 0
T6D78 000:665.051 JLINK_WriteReg(R3, 0x00000000)
T6D78 000:665.055 - 0.005ms returns 0
T6D78 000:665.059 JLINK_WriteReg(R4, 0x00000000)
T6D78 000:665.062 - 0.005ms returns 0
T6D78 000:665.066 JLINK_WriteReg(R5, 0x00000000)
T6D78 000:665.070 - 0.005ms returns 0
T6D78 000:665.074 JLINK_WriteReg(R6, 0x00000000)
T6D78 000:665.078 - 0.005ms returns 0
T6D78 000:665.082 JLINK_WriteReg(R7, 0x00000000)
T6D78 000:665.085 - 0.005ms returns 0
T6D78 000:665.089 JLINK_WriteReg(R8, 0x00000000)
T6D78 000:665.124 - 0.036ms returns 0
T6D78 000:665.128 JLINK_WriteReg(R9, 0x180000CC)
T6D78 000:665.132 - 0.005ms returns 0
T6D78 000:665.136 JLINK_WriteReg(R10, 0x00000000)
T6D78 000:665.139 - 0.005ms returns 0
T6D78 000:665.143 JLINK_WriteReg(R11, 0x00000000)
T6D78 000:665.147 - 0.005ms returns 0
T6D78 000:665.151 JLINK_WriteReg(R12, 0x00000000)
T6D78 000:665.155 - 0.005ms returns 0
T6D78 000:665.159 JLINK_WriteReg(R13 (SP), 0x18001018)
T6D78 000:665.163 - 0.005ms returns 0
T6D78 000:665.167 JLINK_WriteReg(R14, 0x18000019)
T6D78 000:665.170 - 0.005ms returns 0
T6D78 000:665.174 JLINK_WriteReg(R15 (PC), 0x1800006E)
T6D78 000:665.178 - 0.005ms returns 0
T6D78 000:665.182 JLINK_WriteReg(XPSR, 0x01000000)
T6D78 000:665.186 - 0.005ms returns 0
T6D78 000:665.190 JLINK_WriteReg(MSP, 0x18001018)
T6D78 000:665.194 - 0.005ms returns 0
T6D78 000:665.198 JLINK_WriteReg(PSP, 0x18001018)
T6D78 000:665.201 - 0.005ms returns 0
T6D78 000:665.205 JLINK_WriteReg(CFBP, 0x00000000)
T6D78 000:665.209 - 0.005ms returns 0
T6D78 000:665.213 JLINK_SetBPEx(Addr = 0x18000018, Type = 0xFFFFFFF2)
T6D78 000:665.218 - 0.006ms returns 0x0000000D
T6D78 000:665.222 JLINK_Go()
T6D78 000:665.228   CPU_WriteMem(4 bytes @ 0xE0002000)
T6D78 000:665.588   CPU_ReadMem(4 bytes @ 0xE0001000)
T6D78 000:668.846 - 3.664ms
T6D78 000:668.908 JLINK_IsHalted()
T6D78 000:669.222 - 0.317ms returns FALSE
T6D78 000:669.229 JLINK_HasError()
T6D78 000:671.119 JLINK_IsHalted()
T6D78 000:671.545 - 0.429ms returns FALSE
T6D78 000:671.551 JLINK_HasError()
T6D78 000:673.181 JLINK_IsHalted()
T6D78 000:676.289 - 3.124ms returns TRUE
T6D78 000:676.322 JLINK_ReadReg(R15 (PC))
T6D78 000:676.349 - 0.037ms returns 0x18000018
T6D78 000:676.374 JLINK_ClrBPEx(BPHandle = 0x0000000D)
T6D78 000:676.398 - 0.034ms returns 0x00
T6D78 000:676.424 JLINK_ReadReg(R0)
T6D78 000:676.446 - 0.032ms returns 0x00000000
T6D78 000:676.836 JLINK_WriteMem(0x180000F0, 0x80 Bytes, ...)
T6D78 000:676.842   Data:  CE F2 00 01 08 60 4E F2 08 41 CE F2 00 01 08 60 ...
T6D78 000:676.852   CPU_WriteMem(128 bytes @ 0x180000F0)
T6D78 000:678.034 - 1.211ms returns 0x80
T6D78 000:678.066 JLINK_HasError()
T6D78 000:678.092 JLINK_WriteReg(R0, 0x11000300)
T6D78 000:678.120 - 0.044ms returns 0
T6D78 000:678.151 JLINK_WriteReg(R1, 0x00000080)
T6D78 000:678.174 - 0.033ms returns 0
T6D78 000:678.198 JLINK_WriteReg(R2, 0x180000F0)
T6D78 000:678.220 - 0.032ms returns 0
T6D78 000:678.244 JLINK_WriteReg(R3, 0x00000000)
T6D78 000:678.266 - 0.032ms returns 0
T6D78 000:678.290 JLINK_WriteReg(R4, 0x00000000)
T6D78 000:678.312 - 0.032ms returns 0
T6D78 000:678.335 JLINK_WriteReg(R5, 0x00000000)
T6D78 000:678.357 - 0.032ms returns 0
T6D78 000:678.381 JLINK_WriteReg(R6, 0x00000000)
T6D78 000:678.403 - 0.032ms returns 0
T6D78 000:678.427 JLINK_WriteReg(R7, 0x00000000)
T6D78 000:678.436 - 0.011ms returns 0
T6D78 000:678.440 JLINK_WriteReg(R8, 0x00000000)
T6D78 000:678.444 - 0.005ms returns 0
T6D78 000:678.448 JLINK_WriteReg(R9, 0x180000CC)
T6D78 000:678.452 - 0.005ms returns 0
T6D78 000:678.456 JLINK_WriteReg(R10, 0x00000000)
T6D78 000:678.459 - 0.005ms returns 0
T6D78 000:678.463 JLINK_WriteReg(R11, 0x00000000)
T6D78 000:678.467 - 0.005ms returns 0
T6D78 000:678.471 JLINK_WriteReg(R12, 0x00000000)
T6D78 000:678.475 - 0.005ms returns 0
T6D78 000:678.479 JLINK_WriteReg(R13 (SP), 0x18001018)
T6D78 000:678.483 - 0.005ms returns 0
T6D78 000:678.487 JLINK_WriteReg(R14, 0x18000019)
T6D78 000:678.490 - 0.005ms returns 0
T6D78 000:678.494 JLINK_WriteReg(R15 (PC), 0x1800006E)
T6D78 000:678.498 - 0.005ms returns 0
T6D78 000:678.502 JLINK_WriteReg(XPSR, 0x01000000)
T6D78 000:678.506 - 0.005ms returns 0
T6D78 000:678.510 JLINK_WriteReg(MSP, 0x18001018)
T6D78 000:678.513 - 0.005ms returns 0
T6D78 000:678.517 JLINK_WriteReg(PSP, 0x18001018)
T6D78 000:678.521 - 0.005ms returns 0
T6D78 000:678.525 JLINK_WriteReg(CFBP, 0x00000000)
T6D78 000:678.529 - 0.005ms returns 0
T6D78 000:678.533 JLINK_SetBPEx(Addr = 0x18000018, Type = 0xFFFFFFF2)
T6D78 000:678.563 - 0.033ms returns 0x0000000E
T6D78 000:678.569 JLINK_Go()
T6D78 000:678.574   CPU_WriteMem(4 bytes @ 0xE0002000)
T6D78 000:678.969   CPU_ReadMem(4 bytes @ 0xE0001000)
T6D78 000:682.668 - 4.120ms
T6D78 000:682.715 JLINK_IsHalted()
T6D78 000:683.222 - 0.519ms returns FALSE
T6D78 000:683.245 JLINK_HasError()
T6D78 000:685.132 JLINK_IsHalted()
T6D78 000:685.639 - 0.512ms returns FALSE
T6D78 000:685.648 JLINK_HasError()
T6D78 000:687.647 JLINK_IsHalted()
T6D78 000:690.904 - 3.271ms returns TRUE
T6D78 000:690.923 JLINK_ReadReg(R15 (PC))
T6D78 000:690.931 - 0.010ms returns 0x18000018
T6D78 000:690.938 JLINK_ClrBPEx(BPHandle = 0x0000000E)
T6D78 000:690.944 - 0.009ms returns 0x00
T6D78 000:690.951 JLINK_ReadReg(R0)
T6D78 000:690.957 - 0.008ms returns 0x00000000
T6D78 000:691.289 JLINK_WriteMem(0x180000F0, 0x80 Bytes, ...)
T6D78 000:691.299   Data:  FF F7 48 FF 80 BD 00 00 80 B5 82 B0 45 F2 48 00 ...
T6D78 000:691.314   CPU_WriteMem(128 bytes @ 0x180000F0)
T6D78 000:692.670 - 1.394ms returns 0x80
T6D78 000:692.702 JLINK_HasError()
T6D78 000:692.729 JLINK_WriteReg(R0, 0x11000380)
T6D78 000:692.756 - 0.037ms returns 0
T6D78 000:692.782 JLINK_WriteReg(R1, 0x00000080)
T6D78 000:692.804 - 0.037ms returns 0
T6D78 000:692.851 JLINK_WriteReg(R2, 0x180000F0)
T6D78 000:692.857 - 0.009ms returns 0
T6D78 000:692.864 JLINK_WriteReg(R3, 0x00000000)
T6D78 000:692.870 - 0.008ms returns 0
T6D78 000:692.877 JLINK_WriteReg(R4, 0x00000000)
T6D78 000:692.883 - 0.008ms returns 0
T6D78 000:692.889 JLINK_WriteReg(R5, 0x00000000)
T6D78 000:692.895 - 0.009ms returns 0
T6D78 000:692.902 JLINK_WriteReg(R6, 0x00000000)
T6D78 000:692.908 - 0.008ms returns 0
T6D78 000:692.914 JLINK_WriteReg(R7, 0x00000000)
T6D78 000:692.920 - 0.008ms returns 0
T6D78 000:692.927 JLINK_WriteReg(R8, 0x00000000)
T6D78 000:692.935 - 0.011ms returns 0
